
T5A54 000:462 SEGGER J-Link V4.80g Log File (0001ms, 0275ms total)
T5A54 000:462 DLL Compiled: Feb 13 2014 20:50:02 (0001ms, 0275ms total)
T5A54 000:462 Logging started @ 2025-07-24 18:53 (0001ms, 0275ms total)
T5A54 000:463 JLINK_SetWarnOutHandler(...) (0000ms, 0275ms total)
T5A54 000:463 JLINK_OpenEx(...)
Firmware: J-Link V10 compiled Jan 30 2023 11:28:07
Hardware: V10.10
S/N: 260118151
OEM: SEGGER-EDU
Feature(s): FlashBP, GDB  returns O.K. (0267ms, 0542ms total)
T5A54 000:730 JLINK_SetErrorOutHandler(...) (0000ms, 0542ms total)
T5A54 000:730 JLINK_ExecCommand("ProjectFile = "C:\Users\Admin\Documents\LPC1758_code\JLinkSettings.ini"", ...)  returns 0x00 (0001ms, 0543ms total)
T5A54 000:731 JLINK_ExecCommand("Device = LPC1758", ...)Device "LPC1758" selected (512 KB flash, 32 KB RAM).  returns 0x00 (0004ms, 0547ms total)
T5A54 000:735 JLINK_ExecCommand("DisableConnectionTimeout", ...)  returns 0x01 (0000ms, 0547ms total)
T5A54 000:735 JLINK_GetHardwareVersion()  returns 0x18A88 (0000ms, 0547ms total)
T5A54 000:735 JLINK_GetDLLVersion()  returns 48007 (0001ms, 0548ms total)
T5A54 000:737 JLINK_GetDLLVersion()  returns 48007 (0000ms, 0548ms total)
T5A54 000:737 JLINK_GetCompileDateTime() (0000ms, 0548ms total)
T5A54 000:737 JLINK_GetFirmwareString(...) (0000ms, 0548ms total)
T5A54 000:737 JLINK_GetHardwareVersion()  returns 0x18A88 (0000ms, 0548ms total)
T5A54 000:739 JLINK_TIF_Select(JLINKARM_TIF_SWD)  returns 0x00 (0001ms, 0549ms total)
T5A54 000:740 JLINK_SetSpeed(2000) (0001ms, 0550ms total)
T5A54 000:741 JLINK_GetId() >0x108 TIF>Found SWD-DP with ID 0x2BA01477 >0x0D TIF> >0x21 TIF> >0x0D TIF> >0x28 TIF> >0x0D TIF> >0x28 TIF> >0x0D TIF> >0x21 TIF> >0x0D TIF> >0x28 TIF> >0x0D TIF> >0x21 TIF> >0x0D TIF> >0x21 TIF> >0x0D TIF> >0x21 TIF> >0x0D TIF> >0x21 TIF> >0x0D TIF> >0x28 TIF> >0x0D TIF> >0x28 TIF> >0x0D TIF> >0x21 TIF> >0x0D TIF> >0x28 TIF> >0x0D TIF> >0x28 TIF> >0x0D TIF> >0x28 TIF> >0x0D TIF> >0x21 TIF> >0x0D TIF> >0x21 TIF> >0x0D TIF> >0x28 TIF> >0x0D TIF> >0x21 TIF> >0x0D TIF>
 >0x21 TIF>Found Cortex-M3 r2p0, Little endian. -- CPU_WriteMem(4 bytes @ 0xE0002000) -- CPU_ReadMem(4 bytes @ 0xE000EDF0) -- CPU_ReadMem(4 bytes @ 0xE0002000)FPUnit: 6 code (BP) slots and 2 literal slots -- CPU_ReadMem(4 bytes @ 0xE000EDFC) -- CPU_ReadMem(4 bytes @ 0xE0001000) -- CPU_WriteMem(4 bytes @ 0xE0001000) -- CPU_ReadMem(4 bytes @ 0xE00FF010)TPIU fitted. -- CPU_ReadMem(4 bytes @ 0xE00FF014)ETM fitted. -- CPU_ReadMem(4 bytes @ 0xE00FF018) >0x0D TIF> >0x21 TIF>  returns 0x2BA01477
 (0025ms, 0575ms total)
T5A54 000:766 JLINK_GetDeviceFamily()  returns 3 (0000ms, 0575ms total)
T5A54 000:766 JLINK_ReadMem (0xE00FFFF0, 0x0010 Bytes, ...) -- CPU is running -- CPU_ReadMem(16 bytes @ 0xE00FFFF0) -- Data:  0D 00 00 00 10 00 00 00 05 00 00 00 B1 00 00 00  returns 0x00 (0000ms, 0575ms total)
T5A54 000:766 JLINK_ReadMem (0xE00FFFD0, 0x0020 Bytes, ...) -- CPU is running -- CPU_ReadMem(32 bytes @ 0xE00FFFD0) -- Data:  00 00 00 00 00 00 00 00 00 00 00 00 00 00 00 00 ...  returns 0x00 (0001ms, 0576ms total)
T5A54 000:767 JLINK_ReadMem (0xE00FF000, 0x0018 Bytes, ...) -- CPU is running -- CPU_ReadMem(24 bytes @ 0xE00FF000) -- Data:  03 F0 F0 FF 03 20 F0 FF 03 30 F0 FF 03 10 F0 FF ...  returns 0x00 (0000ms, 0576ms total)
T5A54 000:767 JLINK_ReadMemU32(0xE000ED00, 0x0001 Items, ...) -- CPU is running -- CPU_ReadMem(4 bytes @ 0xE000ED00) -- Data:  30 C2 2F 41  returns 0x01 (0001ms, 0577ms total)
T5A54 000:768 JLINK_SetResetType(JLINKARM_RESET_TYPE_NORMAL)  returns JLINKARM_RESET_TYPE_HALT_WP (0000ms, 0577ms total)
T5A54 000:768 JLINK_Reset() -- CPU is running -- CPU_WriteMem(4 bytes @ 0xE000EDF0) -- CPU is running -- CPU_WriteMem(4 bytes @ 0xE000EDFC) >0x35 TIF> -- CPU is running -- CPU_WriteMem(4 bytes @ 0xE000ED0C) -- CPU is running -- CPU_ReadMem(4 bytes @ 0xE000EDF0) -- CPU is running -- CPU_ReadMem(4 bytes @ 0xE000EDF0) -- CPU is running -- CPU_WriteMem(4 bytes @ 0xE000EDF0) -- CPU is running -- CPU_WriteMem(4 bytes @ 0xE000EDFC) -- CPU is running -- CPU_ReadMem(4 bytes @ 0xE000EDF0)
 -- CPU_WriteMem(4 bytes @ 0xE000EDFC) -- CPU_WriteMem(4 bytes @ 0xE000EDFC) -- CPU_WriteMem(4 bytes @ 0xE000EDFC) -- CPU_WriteMem(4 bytes @ 0xE000EDFC) -- CPU_WriteMem(4 bytes @ 0xE000EDFC) -- CPU_WriteMem(4 bytes @ 0xE0001050) -- CPU_WriteMem(4 bytes @ 0xE0001054) -- CPU_WriteMem(4 bytes @ 0xE0001058) -- CPU_WriteMem(4 bytes @ 0xE000EDFC) -- CPU_WriteMem(4 bytes @ 0xE0001058) -- CPU_ReadMem(4 bytes @ 0x00000004) -- CPU_ReadMem(4 bytes @ 0xE0002000) -- CPU_ReadMem(4 bytes @ 0xE0002008)
 -- CPU_ReadMem(4 bytes @ 0xE000200C) -- CPU_ReadMem(4 bytes @ 0xE0002010) -- CPU_ReadMem(4 bytes @ 0xE0002014) -- CPU_ReadMem(4 bytes @ 0xE0002018) -- CPU_ReadMem(4 bytes @ 0xE000201C) -- CPU_WriteMem(4 bytes @ 0xE0002000) -- CPU_WriteMem(4 bytes @ 0xE0002008) -- CPU_WriteMem(4 bytes @ 0xE000200C) -- CPU_WriteMem(4 bytes @ 0xE0002010) -- CPU_WriteMem(4 bytes @ 0xE0002014) -- CPU_WriteMem(4 bytes @ 0xE0002018) -- CPU_WriteMem(4 bytes @ 0xE000201C) -- CPU_ReadMem(4 bytes @ 0x400FC040)
 -- CPU_WriteMem(4 bytes @ 0xE0002000) -- CPU_WriteMem(4 bytes @ 0xE0002008) -- CPU_WriteMem(4 bytes @ 0xE000200C) -- CPU_WriteMem(4 bytes @ 0xE0002010) -- CPU_WriteMem(4 bytes @ 0xE0002014) -- CPU_WriteMem(4 bytes @ 0xE0002018) -- CPU_WriteMem(4 bytes @ 0xE000201C) -- CPU_WriteMem(4 bytes @ 0xE0002000) -- CPU_ReadMem(4 bytes @ 0xE000EDFC) -- CPU_ReadMem(4 bytes @ 0xE0001000) (0247ms, 0824ms total)
T5A54 001:015 JLINK_ReadReg(R15 (PC))  returns 0x00000168 (0000ms, 0824ms total)
T5A54 001:016 JLINK_ReadReg(XPSR)  returns 0x61000000 (0000ms, 0824ms total)
T5A54 001:016 JLINK_Halt()  returns 0x00 (0000ms, 0824ms total)
T5A54 001:016 JLINK_IsHalted()  returns TRUE (0000ms, 0824ms total)
T5A54 001:016 JLINK_ReadMemU32(0xE000EDF0, 0x0001 Items, ...) -- CPU_ReadMem(4 bytes @ 0xE000EDF0) -- Data:  03 00 03 00  returns 0x01 (0000ms, 0824ms total)
T5A54 001:016 JLINK_WriteU32(0xE000EDF0, 0xA05F0003) -- CPU_WriteMem(4 bytes @ 0xE000EDF0)  returns 0x00 (0001ms, 0825ms total)
T5A54 001:017 JLINK_WriteU32(0xE000EDFC, 0x01000000) -- CPU_WriteMem(4 bytes @ 0xE000EDFC)  returns 0x00 (0001ms, 0826ms total)
T5A54 001:023 JLINK_GetHWStatus(...)  returns 0x00 (0000ms, 0826ms total)
T5A54 001:025 JLINK_GetNumBPUnits(Type = 0xFFFFFF00)  returns 0x06 (0000ms, 0826ms total)
T5A54 001:025 JLINK_GetNumBPUnits(Type = 0xF0)  returns 0x2000 (0000ms, 0826ms total)
T5A54 001:025 JLINK_GetNumWPUnits()  returns 0x04 (0000ms, 0826ms total)
T5A54 001:028 JLINK_GetSpeed()  returns 0x7D0 (0002ms, 0828ms total)
T5A54 001:031 JLINK_ReadMemU32(0xE000E004, 0x0001 Items, ...) -- CPU_ReadMem(4 bytes @ 0xE000E004) -- Data:  01 00 00 00  returns 0x01 (0000ms, 0828ms total)
T5A54 001:031 JLINK_ReadMemU32(0xE000E004, 0x0001 Items, ...) -- CPU_ReadMem(4 bytes @ 0xE000E004) -- Data:  01 00 00 00  returns 0x01 (0001ms, 0829ms total)
T5A54 001:032 JLINK_WriteMem(0xE0001000, 0x001C Bytes, ...) -- Data:  01 00 00 00 00 00 00 00 00 00 00 00 00 00 00 00 ... -- CPU_WriteMem(28 bytes @ 0xE0001000)  returns 0x1C (0001ms, 0830ms total)
T5A54 001:033 JLINK_ReadMem (0xE0001000, 0x001C Bytes, ...) -- CPU_ReadMem(28 bytes @ 0xE0001000) -- Data:  01 00 00 40 00 00 00 00 00 00 00 00 00 00 00 00 ...  returns 0x00 (0001ms, 0831ms total)
T5A54 001:034 JLINK_ReadReg(R15 (PC))  returns 0x00000168 (0000ms, 0831ms total)
T5A54 001:034 JLINK_ReadReg(XPSR)  returns 0x61000000 (0000ms, 0831ms total)
T5A54 001:049 JLINK_WriteU8(0x400FC040, 0x01) -- CPU_WriteMem(1 bytes @ 0x400FC040)  returns 0x00 (0001ms, 0832ms total)
T5A54 001:062 JLINK_ReadMem (0x00000000, 0x0CC8 Bytes, ...) -- CPU_ReadMem(4 bytes @ 0x400FC040) -- CPU_ReadMem(3328 bytes @ 0x00000000) -- Updating C cache (3328 bytes @ 0x00000000) -- Read from C cache (3272 bytes @ 0x00000000) -- Data:  08 0B 00 10 69 01 00 00 71 01 00 00 73 01 00 00 ...  returns 0x00 (0023ms, 0855ms total)
T5A54 001:166 JLINK_SetResetType(JLINKARM_RESET_TYPE_NORMAL)  returns JLINKARM_RESET_TYPE_HALT_WP (0000ms, 0855ms total)
T5A54 001:166 JLINK_Reset() -- CPU_WriteMem(4 bytes @ 0xE000EDF0) -- CPU_WriteMem(4 bytes @ 0xE000EDFC) >0x35 TIF> -- CPU_WriteMem(4 bytes @ 0xE000ED0C) -- CPU_ReadMem(4 bytes @ 0xE000EDF0) -- CPU_ReadMem(4 bytes @ 0xE000EDF0) -- CPU_WriteMem(4 bytes @ 0xE000EDF0) -- CPU_WriteMem(4 bytes @ 0xE000EDFC) -- CPU is running -- CPU_ReadMem(4 bytes @ 0xE000EDF0) -- CPU_WriteMem(4 bytes @ 0xE000EDFC) -- CPU_WriteMem(4 bytes @ 0xE000EDFC) -- CPU_WriteMem(4 bytes @ 0xE000EDFC) -- CPU_WriteMem(4 bytes @ 0xE000EDFC)
 -- CPU_WriteMem(4 bytes @ 0xE000EDFC) -- CPU_WriteMem(4 bytes @ 0xE0001050) -- CPU_WriteMem(4 bytes @ 0xE0001054) -- CPU_WriteMem(4 bytes @ 0xE0001058) -- CPU_WriteMem(4 bytes @ 0xE000EDFC) -- CPU_WriteMem(4 bytes @ 0xE0001058) -- CPU_ReadMem(4 bytes @ 0x00000004) -- CPU_ReadMem(4 bytes @ 0xE0002000) -- CPU_ReadMem(4 bytes @ 0xE0002008) -- CPU_ReadMem(4 bytes @ 0xE000200C) -- CPU_ReadMem(4 bytes @ 0xE0002010) -- CPU_ReadMem(4 bytes @ 0xE0002014) -- CPU_ReadMem(4 bytes @ 0xE0002018)
 -- CPU_ReadMem(4 bytes @ 0xE000201C) -- CPU_WriteMem(4 bytes @ 0xE0002000) -- CPU_WriteMem(4 bytes @ 0xE0002008) -- CPU_WriteMem(4 bytes @ 0xE000200C) -- CPU_WriteMem(4 bytes @ 0xE0002010) -- CPU_WriteMem(4 bytes @ 0xE0002014) -- CPU_WriteMem(4 bytes @ 0xE0002018) -- CPU_WriteMem(4 bytes @ 0xE000201C) -- CPU_ReadMem(4 bytes @ 0x400FC040) -- CPU_WriteMem(4 bytes @ 0xE0002000) -- CPU_WriteMem(4 bytes @ 0xE0002008) -- CPU_WriteMem(4 bytes @ 0xE000200C) -- CPU_WriteMem(4 bytes @ 0xE0002010)
 -- CPU_WriteMem(4 bytes @ 0xE0002014) -- CPU_WriteMem(4 bytes @ 0xE0002018) -- CPU_WriteMem(4 bytes @ 0xE000201C) -- CPU_WriteMem(4 bytes @ 0xE0002000) -- CPU_ReadMem(4 bytes @ 0xE000EDFC) -- CPU_ReadMem(4 bytes @ 0xE0001000) (0255ms, 1110ms total)
T5A54 001:421 JLINK_ReadReg(R15 (PC))  returns 0x00000168 (0000ms, 1110ms total)
T5A54 001:421 JLINK_ReadReg(XPSR)  returns 0x61000000 (0000ms, 1110ms total)
T5A54 001:422 JLINK_ReadMem (0x00000168, 0x003C Bytes, ...) -- CPU_ReadMem(128 bytes @ 0x00000140) -- Updating C cache (128 bytes @ 0x00000140) -- Read from C cache (60 bytes @ 0x00000168) -- Data:  09 48 80 47 09 48 00 47 FE E7 FE E7 FE E7 FE E7 ...  returns 0x00 (0002ms, 1112ms total)
T5A54 001:591 JLINK_ReadMem (0x40044000, 0x0030 Bytes, ...) -- CPU_ReadMem(48 bytes @ 0x40044000) -- Data:  AA AA AA AA AA AA AA AA AA AA AA AA AA AA AA AA ...  returns 0x01 (0000ms, 1112ms total)
T5A54 001:591 JLINK_ReadMem (0x40044030, 0x0004 Bytes, ...) -- CPU_ReadMem(4 bytes @ 0x40044030) -- Data:  AA AA AA AA  returns 0x01 (0001ms, 1113ms total)
T5A54 001:592 JLINK_ReadMem (0x40044034, 0x0004 Bytes, ...) -- CPU_ReadMem(4 bytes @ 0x40044034) -- Data:  AA AA AA AA  returns 0x01 (0001ms, 1114ms total)
T5A54 001:593 JLINK_ReadMem (0x40044038, 0x0004 Bytes, ...) -- CPU_ReadMem(4 bytes @ 0x40044038) -- Data:  AA AA AA AA  returns 0x01 (0000ms, 1114ms total)
T5A54 001:593 JLINK_ReadMem (0x4004403C, 0x0004 Bytes, ...) -- CPU_ReadMem(4 bytes @ 0x4004403C) -- Data:  AA AA AA AA  returns 0x01 (0001ms, 1115ms total)
T5A54 001:594 JLINK_ReadMem (0x40044040, 0x0004 Bytes, ...) -- CPU_ReadMem(4 bytes @ 0x40044040) -- Data:  AA AA AA AA  returns 0x01 (0000ms, 1115ms total)
T5A54 001:594 JLINK_ReadMem (0x40044044, 0x0004 Bytes, ...) -- CPU_ReadMem(4 bytes @ 0x40044044) -- Data:  AA AA AA AA  returns 0x01 (0001ms, 1116ms total)
T5A54 001:595 JLINK_ReadMem (0x40044048, 0x0004 Bytes, ...) -- CPU_ReadMem(4 bytes @ 0x40044048) -- Data:  AA AA AA AA  returns 0x01 (0000ms, 1116ms total)
T5A54 001:595 JLINK_ReadMem (0x4004404C, 0x0004 Bytes, ...) -- CPU_ReadMem(4 bytes @ 0x4004404C) -- Data:  AA AA AA AA  returns 0x01 (0001ms, 1117ms total)
T5A54 001:596 JLINK_ReadMem (0x40044050, 0x0004 Bytes, ...) -- CPU_ReadMem(4 bytes @ 0x40044050) -- Data:  AA AA AA AA  returns 0x01 (0001ms, 1118ms total)
T5A54 001:597 JLINK_ReadMem (0x40044054, 0x0004 Bytes, ...) -- CPU_ReadMem(4 bytes @ 0x40044054) -- Data:  AA AA AA AA  returns 0x01 (0000ms, 1118ms total)
T5A54 001:597 JLINK_ReadMem (0x40044058, 0x0004 Bytes, ...) -- CPU_ReadMem(4 bytes @ 0x40044058) -- Data:  AA AA AA AA  returns 0x01 (0001ms, 1119ms total)
T5A54 001:598 JLINK_ReadMem (0x4004405C, 0x0004 Bytes, ...) -- CPU_ReadMem(4 bytes @ 0x4004405C) -- Data:  AA AA AA AA  returns 0x01 (0000ms, 1119ms total)
T5A54 001:598 JLINK_ReadMem (0x40044000, 0x0004 Bytes, ...) -- CPU_ReadMem(4 bytes @ 0x40044000) -- Data:  AA AA AA AA  returns 0x01 (0002ms, 1121ms total)
T5A54 001:600 JLINK_ReadMem (0x40044000, 0x0004 Bytes, ...) -- CPU_ReadMem(4 bytes @ 0x40044000) -- Data:  AA AA AA AA  returns 0x01 (0000ms, 1121ms total)
T5A54 001:600 JLINK_ReadMem (0x40044000, 0x0004 Bytes, ...) -- CPU_ReadMem(4 bytes @ 0x40044000) -- Data:  AA AA AA AA  returns 0x01 (0000ms, 1121ms total)
T5A54 001:600 JLINK_ReadMem (0x40044000, 0x0004 Bytes, ...) -- CPU_ReadMem(4 bytes @ 0x40044000) -- Data:  AA AA AA AA  returns 0x01 (0001ms, 1122ms total)
T5A54 001:601 JLINK_ReadMem (0x40044000, 0x0004 Bytes, ...) -- CPU_ReadMem(4 bytes @ 0x40044000) -- Data:  AA AA AA AA  returns 0x01 (0001ms, 1123ms total)
T5A54 001:602 JLINK_ReadMem (0x40044000, 0x0004 Bytes, ...) -- CPU_ReadMem(4 bytes @ 0x40044000) -- Data:  AA AA AA AA  returns 0x01 (0001ms, 1124ms total)
T5A54 001:603 JLINK_ReadMem (0x40044000, 0x0004 Bytes, ...) -- CPU_ReadMem(4 bytes @ 0x40044000) -- Data:  AA AA AA AA  returns 0x01 (0001ms, 1125ms total)
T5A54 001:604 JLINK_ReadMem (0x40044000, 0x0004 Bytes, ...) -- CPU_ReadMem(4 bytes @ 0x40044000) -- Data:  AA AA AA AA  returns 0x01 (0000ms, 1125ms total)
T5A54 001:605 JLINK_ReadMem (0x40044008, 0x0004 Bytes, ...) -- CPU_ReadMem(4 bytes @ 0x40044008) -- Data:  AA AA AA AA  returns 0x01 (0000ms, 1125ms total)
T5A54 001:605 JLINK_ReadMem (0x40044008, 0x0004 Bytes, ...) -- CPU_ReadMem(4 bytes @ 0x40044008) -- Data:  AA AA AA AA  returns 0x01 (0002ms, 1127ms total)
T5A54 001:607 JLINK_ReadMem (0x40044008, 0x0004 Bytes, ...) -- CPU_ReadMem(4 bytes @ 0x40044008) -- Data:  AA AA AA AA  returns 0x01 (0001ms, 1128ms total)
T5A54 001:608 JLINK_ReadMem (0x40044008, 0x0004 Bytes, ...) -- CPU_ReadMem(4 bytes @ 0x40044008) -- Data:  AA AA AA AA  returns 0x01 (0000ms, 1128ms total)
T5A54 001:608 JLINK_ReadMem (0x40044008, 0x0004 Bytes, ...) -- CPU_ReadMem(4 bytes @ 0x40044008) -- Data:  AA AA AA AA  returns 0x01 (0001ms, 1129ms total)
T5A54 001:609 JLINK_ReadMem (0x40044008, 0x0004 Bytes, ...) -- CPU_ReadMem(4 bytes @ 0x40044008) -- Data:  AA AA AA AA  returns 0x01 (0000ms, 1129ms total)
T5A54 001:609 JLINK_ReadMem (0x40044008, 0x0004 Bytes, ...) -- CPU_ReadMem(4 bytes @ 0x40044008) -- Data:  AA AA AA AA  returns 0x01 (0001ms, 1130ms total)
T5A54 001:610 JLINK_ReadMem (0x40044008, 0x0004 Bytes, ...) -- CPU_ReadMem(4 bytes @ 0x40044008) -- Data:  AA AA AA AA  returns 0x01 (0001ms, 1131ms total)
T5A54 001:611 JLINK_ReadMem (0x40044008, 0x0004 Bytes, ...) -- CPU_ReadMem(4 bytes @ 0x40044008) -- Data:  AA AA AA AA  returns 0x01 (0001ms, 1132ms total)
T5A54 001:612 JLINK_ReadMem (0x40044008, 0x0004 Bytes, ...) -- CPU_ReadMem(4 bytes @ 0x40044008) -- Data:  AA AA AA AA  returns 0x01 (0000ms, 1132ms total)
T5A54 001:612 JLINK_ReadMem (0x40044008, 0x0004 Bytes, ...) -- CPU_ReadMem(4 bytes @ 0x40044008) -- Data:  AA AA AA AA  returns 0x01 (0001ms, 1133ms total)
T5A54 001:613 JLINK_ReadMem (0x4004400C, 0x0004 Bytes, ...) -- CPU_ReadMem(4 bytes @ 0x4004400C) -- Data:  AA AA AA AA  returns 0x01 (0001ms, 1134ms total)
T5A54 001:614 JLINK_ReadMem (0x4004400C, 0x0004 Bytes, ...) -- CPU_ReadMem(4 bytes @ 0x4004400C) -- Data:  AA AA AA AA  returns 0x01 (0001ms, 1135ms total)
T5A54 001:615 JLINK_ReadMem (0x4004400C, 0x0004 Bytes, ...) -- CPU_ReadMem(4 bytes @ 0x4004400C) -- Data:  AA AA AA AA  returns 0x01 (0000ms, 1135ms total)
T5A54 001:615 JLINK_ReadMem (0x4004400C, 0x0004 Bytes, ...) -- CPU_ReadMem(4 bytes @ 0x4004400C) -- Data:  AA AA AA AA  returns 0x01 (0001ms, 1136ms total)
T5A54 001:616 JLINK_ReadMem (0x4004400C, 0x0004 Bytes, ...) -- CPU_ReadMem(4 bytes @ 0x4004400C) -- Data:  AA AA AA AA  returns 0x01 (0001ms, 1137ms total)
T5A54 001:617 JLINK_ReadMem (0x4004400C, 0x0004 Bytes, ...) -- CPU_ReadMem(4 bytes @ 0x4004400C) -- Data:  AA AA AA AA  returns 0x01 (0001ms, 1138ms total)
T5A54 001:618 JLINK_ReadMem (0x4004400C, 0x0004 Bytes, ...) -- CPU_ReadMem(4 bytes @ 0x4004400C) -- Data:  AA AA AA AA  returns 0x01 (0001ms, 1139ms total)
T5A54 001:619 JLINK_ReadMem (0x4004400C, 0x0004 Bytes, ...) -- CPU_ReadMem(4 bytes @ 0x4004400C) -- Data:  AA AA AA AA  returns 0x01 (0000ms, 1139ms total)
T5A54 001:619 JLINK_ReadMem (0x4004400C, 0x0004 Bytes, ...) -- CPU_ReadMem(4 bytes @ 0x4004400C) -- Data:  AA AA AA AA  returns 0x01 (0001ms, 1140ms total)
T5A54 001:620 JLINK_ReadMem (0x4004400C, 0x0004 Bytes, ...) -- CPU_ReadMem(4 bytes @ 0x4004400C) -- Data:  AA AA AA AA  returns 0x01 (0000ms, 1140ms total)
T5A54 001:620 JLINK_ReadMem (0x4004400C, 0x0004 Bytes, ...) -- CPU_ReadMem(4 bytes @ 0x4004400C) -- Data:  AA AA AA AA  returns 0x01 (0001ms, 1141ms total)
T5A54 001:621 JLINK_ReadMem (0x4004400C, 0x0004 Bytes, ...) -- CPU_ReadMem(4 bytes @ 0x4004400C) -- Data:  AA AA AA AA  returns 0x01 (0002ms, 1143ms total)
T5A54 001:623 JLINK_ReadMem (0x4004400C, 0x0004 Bytes, ...) -- CPU_ReadMem(4 bytes @ 0x4004400C) -- Data:  AA AA AA AA  returns 0x01 (0001ms, 1144ms total)
T5A54 001:624 JLINK_ReadMem (0x4004400C, 0x0004 Bytes, ...) -- CPU_ReadMem(4 bytes @ 0x4004400C) -- Data:  AA AA AA AA  returns 0x01 (0000ms, 1144ms total)
T5A54 001:624 JLINK_ReadMem (0x4004400C, 0x0004 Bytes, ...) -- CPU_ReadMem(4 bytes @ 0x4004400C) -- Data:  AA AA AA AA  returns 0x01 (0001ms, 1145ms total)
T5A54 001:625 JLINK_ReadMem (0x4004400C, 0x0004 Bytes, ...) -- CPU_ReadMem(4 bytes @ 0x4004400C) -- Data:  AA AA AA AA  returns 0x01 (0001ms, 1146ms total)
T5A54 001:626 JLINK_ReadMem (0x40044010, 0x0004 Bytes, ...) -- CPU_ReadMem(4 bytes @ 0x40044010) -- Data:  AA AA AA AA  returns 0x01 (0001ms, 1147ms total)
T5A54 001:627 JLINK_ReadMem (0x40044010, 0x0004 Bytes, ...) -- CPU_ReadMem(4 bytes @ 0x40044010) -- Data:  AA AA AA AA  returns 0x01 (0000ms, 1147ms total)
T5A54 001:627 JLINK_ReadMem (0x40044010, 0x0004 Bytes, ...) -- CPU_ReadMem(4 bytes @ 0x40044010) -- Data:  AA AA AA AA  returns 0x01 (0001ms, 1148ms total)
T5A54 001:628 JLINK_ReadMem (0x40044010, 0x0004 Bytes, ...) -- CPU_ReadMem(4 bytes @ 0x40044010) -- Data:  AA AA AA AA  returns 0x01 (0001ms, 1149ms total)
T5A54 001:629 JLINK_ReadMem (0x40044010, 0x0004 Bytes, ...) -- CPU_ReadMem(4 bytes @ 0x40044010) -- Data:  AA AA AA AA  returns 0x01 (0001ms, 1150ms total)
T5A54 001:630 JLINK_ReadMem (0x40044010, 0x0004 Bytes, ...) -- CPU_ReadMem(4 bytes @ 0x40044010) -- Data:  AA AA AA AA  returns 0x01 (0000ms, 1150ms total)
T5A54 001:630 JLINK_ReadMem (0x40044010, 0x0004 Bytes, ...) -- CPU_ReadMem(4 bytes @ 0x40044010) -- Data:  AA AA AA AA  returns 0x01 (0001ms, 1151ms total)
T5A54 001:631 JLINK_ReadMem (0x40044010, 0x0004 Bytes, ...) -- CPU_ReadMem(4 bytes @ 0x40044010) -- Data:  AA AA AA AA  returns 0x01 (0001ms, 1152ms total)
T5A54 001:632 JLINK_ReadMem (0x40044010, 0x0004 Bytes, ...) -- CPU_ReadMem(4 bytes @ 0x40044010) -- Data:  AA AA AA AA  returns 0x01 (0001ms, 1153ms total)
T5A54 001:633 JLINK_ReadMem (0x40044010, 0x0004 Bytes, ...) -- CPU_ReadMem(4 bytes @ 0x40044010) -- Data:  AA AA AA AA  returns 0x01 (0000ms, 1153ms total)
T5A54 001:633 JLINK_ReadMem (0x40044010, 0x0004 Bytes, ...) -- CPU_ReadMem(4 bytes @ 0x40044010) -- Data:  AA AA AA AA  returns 0x01 (0000ms, 1153ms total)
T5A54 001:633 JLINK_ReadMem (0x40044010, 0x0004 Bytes, ...) -- CPU_ReadMem(4 bytes @ 0x40044010) -- Data:  AA AA AA AA  returns 0x01 (0002ms, 1155ms total)
T5A54 001:635 JLINK_ReadMem (0x40044014, 0x0004 Bytes, ...) -- CPU_ReadMem(4 bytes @ 0x40044014) -- Data:  AA AA AA AA  returns 0x01 (0000ms, 1155ms total)
T5A54 001:635 JLINK_ReadMem (0x40044014, 0x0004 Bytes, ...) -- CPU_ReadMem(4 bytes @ 0x40044014) -- Data:  AA AA AA AA  returns 0x01 (0001ms, 1156ms total)
T5A54 001:636 JLINK_ReadMem (0x40044014, 0x0004 Bytes, ...) -- CPU_ReadMem(4 bytes @ 0x40044014) -- Data:  AA AA AA AA  returns 0x01 (0000ms, 1156ms total)
T5A54 001:637 JLINK_ReadMem (0x40044014, 0x0004 Bytes, ...) -- CPU_ReadMem(4 bytes @ 0x40044014) -- Data:  AA AA AA AA  returns 0x01 (0000ms, 1156ms total)
T5A54 001:637 JLINK_ReadMem (0x40044014, 0x0004 Bytes, ...) -- CPU_ReadMem(4 bytes @ 0x40044014) -- Data:  AA AA AA AA  returns 0x01 (0001ms, 1157ms total)
T5A54 001:638 JLINK_ReadMem (0x40044014, 0x0004 Bytes, ...) -- CPU_ReadMem(4 bytes @ 0x40044014) -- Data:  AA AA AA AA  returns 0x01 (0001ms, 1158ms total)
T5A54 001:639 JLINK_ReadMem (0x40044018, 0x0004 Bytes, ...) -- CPU_ReadMem(4 bytes @ 0x40044018) -- Data:  AA AA AA AA  returns 0x01 (0000ms, 1158ms total)
T5A54 001:639 JLINK_ReadMem (0x40044018, 0x0004 Bytes, ...) -- CPU_ReadMem(4 bytes @ 0x40044018) -- Data:  AA AA AA AA  returns 0x01 (0001ms, 1159ms total)
T5A54 001:640 JLINK_ReadMem (0x4004401C, 0x0004 Bytes, ...) -- CPU_ReadMem(4 bytes @ 0x4004401C) -- Data:  AA AA AA AA  returns 0x01 (0001ms, 1160ms total)
T5A54 001:641 JLINK_ReadMem (0x4004401C, 0x0004 Bytes, ...) -- CPU_ReadMem(4 bytes @ 0x4004401C) -- Data:  AA AA AA AA  returns 0x01 (0000ms, 1160ms total)
T5A54 001:641 JLINK_ReadMem (0x4004401C, 0x0004 Bytes, ...) -- CPU_ReadMem(4 bytes @ 0x4004401C) -- Data:  AA AA AA AA  returns 0x01 (0001ms, 1161ms total)
T5A54 001:642 JLINK_ReadMem (0x4004401C, 0x0004 Bytes, ...) -- CPU_ReadMem(4 bytes @ 0x4004401C) -- Data:  AA AA AA AA  returns 0x01 (0001ms, 1162ms total)
T5A54 001:643 JLINK_ReadMem (0x4004401C, 0x0004 Bytes, ...) -- CPU_ReadMem(4 bytes @ 0x4004401C) -- Data:  AA AA AA AA  returns 0x01 (0001ms, 1163ms total)
T5A54 001:644 JLINK_ReadMem (0x4004401C, 0x0004 Bytes, ...) -- CPU_ReadMem(4 bytes @ 0x4004401C) -- Data:  AA AA AA AA  returns 0x01 (0000ms, 1163ms total)
T5A54 001:644 JLINK_ReadMem (0x4004401C, 0x0004 Bytes, ...) -- CPU_ReadMem(4 bytes @ 0x4004401C) -- Data:  AA AA AA AA  returns 0x01 (0001ms, 1164ms total)
T5A54 001:645 JLINK_ReadMem (0x4004401C, 0x0004 Bytes, ...) -- CPU_ReadMem(4 bytes @ 0x4004401C) -- Data:  AA AA AA AA  returns 0x01 (0000ms, 1164ms total)
T5A54 001:645 JLINK_ReadMem (0x4004401C, 0x0004 Bytes, ...) -- CPU_ReadMem(4 bytes @ 0x4004401C) -- Data:  AA AA AA AA  returns 0x01 (0002ms, 1166ms total)
T5A54 001:647 JLINK_ReadMem (0x4004401C, 0x0004 Bytes, ...) -- CPU_ReadMem(4 bytes @ 0x4004401C) -- Data:  AA AA AA AA  returns 0x01 (0000ms, 1166ms total)
T5A54 001:647 JLINK_ReadMem (0x4004401C, 0x0004 Bytes, ...) -- CPU_ReadMem(4 bytes @ 0x4004401C) -- Data:  AA AA AA AA  returns 0x01 (0000ms, 1166ms total)
T5A54 001:647 JLINK_ReadMem (0x4004401C, 0x0004 Bytes, ...) -- CPU_ReadMem(4 bytes @ 0x4004401C) -- Data:  AA AA AA AA  returns 0x01 (0002ms, 1168ms total)
T5A54 001:649 JLINK_ReadMem (0x4004401C, 0x0004 Bytes, ...) -- CPU_ReadMem(4 bytes @ 0x4004401C) -- Data:  AA AA AA AA  returns 0x01 (0000ms, 1168ms total)
T5A54 001:649 JLINK_ReadMem (0x4004401C, 0x0004 Bytes, ...) -- CPU_ReadMem(4 bytes @ 0x4004401C) -- Data:  AA AA AA AA  returns 0x01 (0001ms, 1169ms total)
T5A54 001:650 JLINK_ReadMem (0x4004401C, 0x0004 Bytes, ...) -- CPU_ReadMem(4 bytes @ 0x4004401C) -- Data:  AA AA AA AA  returns 0x01 (0001ms, 1170ms total)
T5A54 001:651 JLINK_ReadMem (0x4004401C, 0x0004 Bytes, ...) -- CPU_ReadMem(4 bytes @ 0x4004401C) -- Data:  AA AA AA AA  returns 0x01 (0001ms, 1171ms total)
T5A54 001:652 JLINK_ReadMem (0x4004401C, 0x0004 Bytes, ...) -- CPU_ReadMem(4 bytes @ 0x4004401C) -- Data:  AA AA AA AA  returns 0x01 (0001ms, 1172ms total)
T5A54 001:653 JLINK_ReadMem (0x4004401C, 0x0004 Bytes, ...) -- CPU_ReadMem(4 bytes @ 0x4004401C) -- Data:  AA AA AA AA  returns 0x01 (0000ms, 1172ms total)
T5A54 001:653 JLINK_ReadMem (0x4004401C, 0x0004 Bytes, ...) -- CPU_ReadMem(4 bytes @ 0x4004401C) -- Data:  AA AA AA AA  returns 0x01 (0001ms, 1173ms total)
T5A54 001:654 JLINK_ReadMem (0x4004401C, 0x0004 Bytes, ...) -- CPU_ReadMem(4 bytes @ 0x4004401C) -- Data:  AA AA AA AA  returns 0x01 (0001ms, 1174ms total)
T5A54 001:655 JLINK_ReadMem (0x4004401C, 0x0004 Bytes, ...) -- CPU_ReadMem(4 bytes @ 0x4004401C) -- Data:  AA AA AA AA  returns 0x01 (0001ms, 1175ms total)
T5A54 001:656 JLINK_ReadMem (0x4004401C, 0x0004 Bytes, ...) -- CPU_ReadMem(4 bytes @ 0x4004401C) -- Data:  AA AA AA AA  returns 0x01 (0001ms, 1176ms total)
T5A54 001:657 JLINK_ReadMem (0x4004401C, 0x0004 Bytes, ...) -- CPU_ReadMem(4 bytes @ 0x4004401C) -- Data:  AA AA AA AA  returns 0x01 (0001ms, 1177ms total)
T5A54 001:658 JLINK_ReadMem (0x4004401C, 0x0004 Bytes, ...) -- CPU_ReadMem(4 bytes @ 0x4004401C) -- Data:  AA AA AA AA  returns 0x01 (0000ms, 1177ms total)
T5A54 001:658 JLINK_ReadMem (0x4004401C, 0x0004 Bytes, ...) -- CPU_ReadMem(4 bytes @ 0x4004401C) -- Data:  AA AA AA AA  returns 0x01 (0001ms, 1178ms total)
T5A54 001:659 JLINK_ReadMem (0x40044020, 0x0004 Bytes, ...) -- CPU_ReadMem(4 bytes @ 0x40044020) -- Data:  AA AA AA AA  returns 0x01 (0000ms, 1178ms total)
T5A54 001:659 JLINK_ReadMem (0x40044020, 0x0004 Bytes, ...) -- CPU_ReadMem(4 bytes @ 0x40044020) -- Data:  AA AA AA AA  returns 0x01 (0001ms, 1179ms total)
T5A54 001:660 JLINK_ReadMem (0x40044020, 0x0004 Bytes, ...) -- CPU_ReadMem(4 bytes @ 0x40044020) -- Data:  AA AA AA AA  returns 0x01 (0001ms, 1180ms total)
T5A54 001:661 JLINK_ReadMem (0x40044020, 0x0004 Bytes, ...) -- CPU_ReadMem(4 bytes @ 0x40044020) -- Data:  AA AA AA AA  returns 0x01 (0001ms, 1181ms total)
T5A54 001:662 JLINK_ReadMem (0x40044020, 0x0004 Bytes, ...) -- CPU_ReadMem(4 bytes @ 0x40044020) -- Data:  AA AA AA AA  returns 0x01 (0000ms, 1181ms total)
T5A54 001:662 JLINK_ReadMem (0x40044020, 0x0004 Bytes, ...) -- CPU_ReadMem(4 bytes @ 0x40044020) -- Data:  AA AA AA AA  returns 0x01 (0001ms, 1182ms total)
T5A54 001:663 JLINK_ReadMem (0x40044024, 0x0004 Bytes, ...) -- CPU_ReadMem(4 bytes @ 0x40044024) -- Data:  AA AA AA AA  returns 0x01 (0000ms, 1182ms total)
T5A54 001:663 JLINK_ReadMem (0x40044024, 0x0004 Bytes, ...) -- CPU_ReadMem(4 bytes @ 0x40044024) -- Data:  AA AA AA AA  returns 0x01 (0002ms, 1184ms total)
T5A54 001:665 JLINK_ReadMem (0x40044028, 0x0004 Bytes, ...) -- CPU_ReadMem(4 bytes @ 0x40044028) -- Data:  AA AA AA AA  returns 0x01 (0000ms, 1184ms total)
T5A54 001:665 JLINK_ReadMem (0x40044028, 0x0004 Bytes, ...) -- CPU_ReadMem(4 bytes @ 0x40044028) -- Data:  AA AA AA AA  returns 0x01 (0001ms, 1185ms total)
T5A54 001:666 JLINK_ReadMem (0x40044028, 0x0004 Bytes, ...) -- CPU_ReadMem(4 bytes @ 0x40044028) -- Data:  AA AA AA AA  returns 0x01 (0000ms, 1185ms total)
T5A54 001:667 JLINK_ReadMem (0x40044028, 0x0004 Bytes, ...) -- CPU_ReadMem(4 bytes @ 0x40044028) -- Data:  AA AA AA AA  returns 0x01 (0001ms, 1187ms total)
T5A54 001:668 JLINK_ReadMem (0x40044028, 0x0004 Bytes, ...) -- CPU_ReadMem(4 bytes @ 0x40044028) -- Data:  AA AA AA AA  returns 0x01 (0001ms, 1188ms total)
T5A54 001:669 JLINK_ReadMem (0x4004402C, 0x0004 Bytes, ...) -- CPU_ReadMem(4 bytes @ 0x4004402C) -- Data:  AA AA AA AA  returns 0x01 (0000ms, 1188ms total)
T5A54 001:669 JLINK_ReadMem (0x4004402C, 0x0004 Bytes, ...) -- CPU_ReadMem(4 bytes @ 0x4004402C) -- Data:  AA AA AA AA  returns 0x01 (0001ms, 1189ms total)
T5A54 001:670 JLINK_ReadMem (0x4004402C, 0x0004 Bytes, ...) -- CPU_ReadMem(4 bytes @ 0x4004402C) -- Data:  AA AA AA AA  returns 0x01 (0000ms, 1189ms total)
T5A54 001:670 JLINK_ReadMem (0x4004402C, 0x0004 Bytes, ...) -- CPU_ReadMem(4 bytes @ 0x4004402C) -- Data:  AA AA AA AA  returns 0x01 (0002ms, 1191ms total)
T5A54 001:672 JLINK_ReadMem (0x4004402C, 0x0004 Bytes, ...) -- CPU_ReadMem(4 bytes @ 0x4004402C) -- Data:  AA AA AA AA  returns 0x01 (0001ms, 1192ms total)
T5A54 001:673 JLINK_ReadMem (0x40044030, 0x0004 Bytes, ...) -- CPU_ReadMem(4 bytes @ 0x40044030) -- Data:  AA AA AA AA  returns 0x01 (0000ms, 1192ms total)
T5A54 001:673 JLINK_ReadMem (0x40044030, 0x0004 Bytes, ...) -- CPU_ReadMem(4 bytes @ 0x40044030) -- Data:  AA AA AA AA  returns 0x01 (0001ms, 1193ms total)
T5A54 001:674 JLINK_ReadMem (0x40044030, 0x0004 Bytes, ...) -- CPU_ReadMem(4 bytes @ 0x40044030) -- Data:  AA AA AA AA  returns 0x01 (0000ms, 1193ms total)
T5A54 001:675 JLINK_ReadMem (0x40044030, 0x0004 Bytes, ...) -- CPU_ReadMem(4 bytes @ 0x40044030) -- Data:  AA AA AA AA  returns 0x01 (0000ms, 1194ms total)
T5A54 001:675 JLINK_ReadMem (0x40044030, 0x0004 Bytes, ...) -- CPU_ReadMem(4 bytes @ 0x40044030) -- Data:  AA AA AA AA  returns 0x01 (0002ms, 1196ms total)
T5A54 001:677 JLINK_ReadMem (0x40044040, 0x0004 Bytes, ...) -- CPU_ReadMem(4 bytes @ 0x40044040) -- Data:  AA AA AA AA  returns 0x01 (0001ms, 1197ms total)
T5A54 001:678 JLINK_ReadMem (0x40044040, 0x0004 Bytes, ...) -- CPU_ReadMem(4 bytes @ 0x40044040) -- Data:  AA AA AA AA  returns 0x01 (0000ms, 1197ms total)
T5A54 001:678 JLINK_ReadMem (0x40044040, 0x0004 Bytes, ...) -- CPU_ReadMem(4 bytes @ 0x40044040) -- Data:  AA AA AA AA  returns 0x01 (0001ms, 1198ms total)
T5A54 001:679 JLINK_ReadMem (0x40044040, 0x0004 Bytes, ...) -- CPU_ReadMem(4 bytes @ 0x40044040) -- Data:  AA AA AA AA  returns 0x01 (0001ms, 1199ms total)
T5A54 001:680 JLINK_ReadMem (0x40044040, 0x0004 Bytes, ...) -- CPU_ReadMem(4 bytes @ 0x40044040) -- Data:  AA AA AA AA  returns 0x01 (0000ms, 1199ms total)
T5A54 001:680 JLINK_ReadMem (0x40044050, 0x0004 Bytes, ...) -- CPU_ReadMem(4 bytes @ 0x40044050) -- Data:  AA AA AA AA  returns 0x01 (0001ms, 1200ms total)
T5A54 001:681 JLINK_ReadMem (0x40044050, 0x0004 Bytes, ...) -- CPU_ReadMem(4 bytes @ 0x40044050) -- Data:  AA AA AA AA  returns 0x01 (0000ms, 1200ms total)
T5A54 001:681 JLINK_ReadMem (0x40044050, 0x0004 Bytes, ...) -- CPU_ReadMem(4 bytes @ 0x40044050) -- Data:  AA AA AA AA  returns 0x01 (0001ms, 1201ms total)
T5A54 001:682 JLINK_ReadMem (0x40044050, 0x0004 Bytes, ...) -- CPU_ReadMem(4 bytes @ 0x40044050) -- Data:  AA AA AA AA  returns 0x01 (0001ms, 1202ms total)
T5A54 001:683 JLINK_ReadMem (0x40044050, 0x0004 Bytes, ...) -- CPU_ReadMem(4 bytes @ 0x40044050) -- Data:  AA AA AA AA  returns 0x01 (0001ms, 1203ms total)
T5A54 001:684 JLINK_ReadMem (0x40044034, 0x0004 Bytes, ...) -- CPU_ReadMem(4 bytes @ 0x40044034) -- Data:  AA AA AA AA  returns 0x01 (0001ms, 1204ms total)
T5A54 001:685 JLINK_ReadMem (0x40044034, 0x0004 Bytes, ...) -- CPU_ReadMem(4 bytes @ 0x40044034) -- Data:  AA AA AA AA  returns 0x01 (0001ms, 1205ms total)
T5A54 001:686 JLINK_ReadMem (0x40044044, 0x0004 Bytes, ...) -- CPU_ReadMem(4 bytes @ 0x40044044) -- Data:  AA AA AA AA  returns 0x01 (0001ms, 1206ms total)
T5A54 001:687 JLINK_ReadMem (0x40044044, 0x0004 Bytes, ...) -- CPU_ReadMem(4 bytes @ 0x40044044) -- Data:  AA AA AA AA  returns 0x01 (0000ms, 1206ms total)
T5A54 001:687 JLINK_ReadMem (0x40044054, 0x0004 Bytes, ...) -- CPU_ReadMem(4 bytes @ 0x40044054) -- Data:  AA AA AA AA  returns 0x01 (0001ms, 1207ms total)
T5A54 001:688 JLINK_ReadMem (0x40044054, 0x0004 Bytes, ...) -- CPU_ReadMem(4 bytes @ 0x40044054) -- Data:  AA AA AA AA  returns 0x01 (0001ms, 1208ms total)
T5A54 001:689 JLINK_ReadMem (0x40044038, 0x0004 Bytes, ...) -- CPU_ReadMem(4 bytes @ 0x40044038) -- Data:  AA AA AA AA  returns 0x01 (0001ms, 1209ms total)
T5A54 001:690 JLINK_ReadMem (0x40044038, 0x0004 Bytes, ...) -- CPU_ReadMem(4 bytes @ 0x40044038) -- Data:  AA AA AA AA  returns 0x01 (0001ms, 1210ms total)
T5A54 001:691 JLINK_ReadMem (0x40044038, 0x0004 Bytes, ...) -- CPU_ReadMem(4 bytes @ 0x40044038) -- Data:  AA AA AA AA  returns 0x01 (0000ms, 1210ms total)
T5A54 001:691 JLINK_ReadMem (0x40044038, 0x0004 Bytes, ...) -- CPU_ReadMem(4 bytes @ 0x40044038) -- Data:  AA AA AA AA  returns 0x01 (0001ms, 1211ms total)
T5A54 001:692 JLINK_ReadMem (0x40044038, 0x0004 Bytes, ...) -- CPU_ReadMem(4 bytes @ 0x40044038) -- Data:  AA AA AA AA  returns 0x01 (0001ms, 1212ms total)
T5A54 001:693 JLINK_ReadMem (0x40044048, 0x0004 Bytes, ...) -- CPU_ReadMem(4 bytes @ 0x40044048) -- Data:  AA AA AA AA  returns 0x01 (0001ms, 1213ms total)
T5A54 001:694 JLINK_ReadMem (0x40044048, 0x0004 Bytes, ...) -- CPU_ReadMem(4 bytes @ 0x40044048) -- Data:  AA AA AA AA  returns 0x01 (0000ms, 1213ms total)
T5A54 001:694 JLINK_ReadMem (0x40044048, 0x0004 Bytes, ...) -- CPU_ReadMem(4 bytes @ 0x40044048) -- Data:  AA AA AA AA  returns 0x01 (0000ms, 1213ms total)
T5A54 001:695 JLINK_ReadMem (0x40044048, 0x0004 Bytes, ...) -- CPU_ReadMem(4 bytes @ 0x40044048) -- Data:  AA AA AA AA  returns 0x01 (0000ms, 1213ms total)
T5A54 001:695 JLINK_ReadMem (0x40044048, 0x0004 Bytes, ...) -- CPU_ReadMem(4 bytes @ 0x40044048) -- Data:  AA AA AA AA  returns 0x01 (0001ms, 1214ms total)
T5A54 001:696 JLINK_ReadMem (0x40044058, 0x0004 Bytes, ...) -- CPU_ReadMem(4 bytes @ 0x40044058) -- Data:  AA AA AA AA  returns 0x01 (0001ms, 1215ms total)
T5A54 001:697 JLINK_ReadMem (0x40044058, 0x0004 Bytes, ...) -- CPU_ReadMem(4 bytes @ 0x40044058) -- Data:  AA AA AA AA  returns 0x01 (0000ms, 1215ms total)
T5A54 001:697 JLINK_ReadMem (0x40044058, 0x0004 Bytes, ...) -- CPU_ReadMem(4 bytes @ 0x40044058) -- Data:  AA AA AA AA  returns 0x01 (0002ms, 1217ms total)
T5A54 001:699 JLINK_ReadMem (0x40044058, 0x0004 Bytes, ...) -- CPU_ReadMem(4 bytes @ 0x40044058) -- Data:  AA AA AA AA  returns 0x01 (0000ms, 1217ms total)
T5A54 001:699 JLINK_ReadMem (0x40044058, 0x0004 Bytes, ...) -- CPU_ReadMem(4 bytes @ 0x40044058) -- Data:  AA AA AA AA  returns 0x01 (0001ms, 1218ms total)
T5A54 001:700 JLINK_ReadMem (0x4004403C, 0x0004 Bytes, ...) -- CPU_ReadMem(4 bytes @ 0x4004403C) -- Data:  AA AA AA AA  returns 0x01 (0001ms, 1219ms total)
T5A54 001:701 JLINK_ReadMem (0x4004403C, 0x0004 Bytes, ...) -- CPU_ReadMem(4 bytes @ 0x4004403C) -- Data:  AA AA AA AA  returns 0x01 (0000ms, 1219ms total)
T5A54 001:701 JLINK_ReadMem (0x4004403C, 0x0004 Bytes, ...) -- CPU_ReadMem(4 bytes @ 0x4004403C) -- Data:  AA AA AA AA  returns 0x01 (0001ms, 1220ms total)
T5A54 001:702 JLINK_ReadMem (0x4004403C, 0x0004 Bytes, ...) -- CPU_ReadMem(4 bytes @ 0x4004403C) -- Data:  AA AA AA AA  returns 0x01 (0000ms, 1220ms total)
T5A54 001:702 JLINK_ReadMem (0x4004403C, 0x0004 Bytes, ...) -- CPU_ReadMem(4 bytes @ 0x4004403C) -- Data:  AA AA AA AA  returns 0x01 (0002ms, 1222ms total)
T5A54 001:704 JLINK_ReadMem (0x4004404C, 0x0004 Bytes, ...) -- CPU_ReadMem(4 bytes @ 0x4004404C) -- Data:  AA AA AA AA  returns 0x01 (0000ms, 1222ms total)
T5A54 001:704 JLINK_ReadMem (0x4004404C, 0x0004 Bytes, ...) -- CPU_ReadMem(4 bytes @ 0x4004404C) -- Data:  AA AA AA AA  returns 0x01 (0001ms, 1223ms total)
T5A54 001:705 JLINK_ReadMem (0x4004404C, 0x0004 Bytes, ...) -- CPU_ReadMem(4 bytes @ 0x4004404C) -- Data:  AA AA AA AA  returns 0x01 (0001ms, 1224ms total)
T5A54 001:706 JLINK_ReadMem (0x4004404C, 0x0004 Bytes, ...) -- CPU_ReadMem(4 bytes @ 0x4004404C) -- Data:  AA AA AA AA  returns 0x01 (0001ms, 1225ms total)
T5A54 001:707 JLINK_ReadMem (0x4004404C, 0x0004 Bytes, ...) -- CPU_ReadMem(4 bytes @ 0x4004404C) -- Data:  AA AA AA AA  returns 0x01 (0001ms, 1226ms total)
T5A54 001:708 JLINK_ReadMem (0x4004405C, 0x0004 Bytes, ...) -- CPU_ReadMem(4 bytes @ 0x4004405C) -- Data:  AA AA AA AA  returns 0x01 (0000ms, 1226ms total)
T5A54 001:708 JLINK_ReadMem (0x4004405C, 0x0004 Bytes, ...) -- CPU_ReadMem(4 bytes @ 0x4004405C) -- Data:  AA AA AA AA  returns 0x01 (0001ms, 1227ms total)
T5A54 001:709 JLINK_ReadMem (0x4004405C, 0x0004 Bytes, ...) -- CPU_ReadMem(4 bytes @ 0x4004405C) -- Data:  AA AA AA AA  returns 0x01 (0001ms, 1228ms total)
T5A54 001:710 JLINK_ReadMem (0x4004405C, 0x0004 Bytes, ...) -- CPU_ReadMem(4 bytes @ 0x4004405C) -- Data:  AA AA AA AA  returns 0x01 (0001ms, 1229ms total)
T5A54 001:711 JLINK_ReadMem (0x4004405C, 0x0004 Bytes, ...) -- CPU_ReadMem(4 bytes @ 0x4004405C) -- Data:  AA AA AA AA  returns 0x01 (0000ms, 1229ms total)
T5A54 001:816 JLINK_ReadMem (0x4002C000, 0x0010 Bytes, ...) -- CPU_ReadMem(16 bytes @ 0x4002C000) -- Data:  00 00 00 00 00 00 00 00 00 00 00 00 00 00 00 00  returns 0x00 (0000ms, 1229ms total)
T5A54 001:816 JLINK_ReadMem (0x4002C010, 0x0004 Bytes, ...) -- CPU_ReadMem(4 bytes @ 0x4002C010) -- Data:  00 00 00 00  returns 0x00 (0001ms, 1230ms total)
T5A54 001:817 JLINK_ReadMem (0x4002C01C, 0x0004 Bytes, ...) -- CPU_ReadMem(4 bytes @ 0x4002C01C) -- Data:  00 00 00 00  returns 0x00 (0000ms, 1230ms total)
T5A54 001:817 JLINK_ReadMem (0x4002C024, 0x0004 Bytes, ...) -- CPU_ReadMem(4 bytes @ 0x4002C024) -- Data:  00 00 00 00  returns 0x00 (0001ms, 1231ms total)
T5A54 001:818 JLINK_ReadMem (0x4002C028, 0x0004 Bytes, ...) -- CPU_ReadMem(4 bytes @ 0x4002C028) -- Data:  00 00 00 00  returns 0x00 (0000ms, 1231ms total)
T5A54 001:818 JLINK_ReadMem (0x4002C040, 0x0010 Bytes, ...) -- CPU_ReadMem(16 bytes @ 0x4002C040) -- Data:  00 00 00 00 00 00 00 00 00 00 00 00 00 00 00 00  returns 0x00 (0001ms, 1232ms total)
T5A54 001:819 JLINK_ReadMem (0x4002C050, 0x0004 Bytes, ...) -- CPU_ReadMem(4 bytes @ 0x4002C050) -- Data:  00 00 00 00  returns 0x00 (0000ms, 1232ms total)
T5A54 001:819 JLINK_ReadMem (0x4002C05C, 0x0004 Bytes, ...) -- CPU_ReadMem(4 bytes @ 0x4002C05C) -- Data:  00 00 00 00  returns 0x00 (0000ms, 1232ms total)
T5A54 001:819 JLINK_ReadMem (0x4002C064, 0x0018 Bytes, ...) -- CPU_ReadMem(24 bytes @ 0x4002C064) -- Data:  00 00 00 00 00 00 00 00 00 00 00 00 00 00 00 00 ...  returns 0x00 (0001ms, 1233ms total)
T5A54 001:820 JLINK_ReadMem (0x4002C07C, 0x0004 Bytes, ...) -- CPU_ReadMem(4 bytes @ 0x4002C07C) -- Data:  00 00 00 00  returns 0x00 (0000ms, 1233ms total)
T5A60 004:916 JLINK_SetBPEx(Addr = 0x000001A4, Type = 0xFFFFFFF2)  returns 0x00000001 (0000ms, 1233ms total)
T5A60 004:916 JLINK_SetBPEx(Addr = 0x0000053C, Type = 0xFFFFFFF2)  returns 0x00000002 (0000ms, 1233ms total)
T5A60 004:916 JLINK_SetBPEx(Addr = 0x00000502, Type = 0xFFFFFFF2)  returns 0x00000003 (0000ms, 1233ms total)
T5A60 004:916 JLINK_SetBPEx(Addr = 0x0000046A, Type = 0xFFFFFFF2)  returns 0x00000004 (0000ms, 1233ms total)
T5A60 004:916 JLINK_Go() -- CPU_WriteMem(4 bytes @ 0xE0002000) -- CPU_WriteMem(4 bytes @ 0xE0002000) -- CPU_WriteMem(4 bytes @ 0xE0002000) -- CPU_WriteMem(4 bytes @ 0xE0002000) -- CPU_WriteMem(4 bytes @ 0xE0002008) -- CPU_WriteMem(4 bytes @ 0xE000200C) -- CPU_WriteMem(4 bytes @ 0xE0002010) -- CPU_WriteMem(4 bytes @ 0xE0002014) -- CPU_WriteMem(4 bytes @ 0xE0002018) -- CPU_WriteMem(4 bytes @ 0xE000201C) -- CPU_WriteMem(4 bytes @ 0xE0001004) (0005ms, 1238ms total)
T5A60 005:022 JLINK_IsHalted() -- CPU_ReadMem(4 bytes @ 0x400FC040)  returns TRUE (0006ms, 1244ms total)
T5A60 005:028 JLINK_Halt()  returns 0x00 (0000ms, 1238ms total)
T5A60 005:028 JLINK_IsHalted()  returns TRUE (0000ms, 1238ms total)
T5A60 005:028 JLINK_IsHalted()  returns TRUE (0000ms, 1238ms total)
T5A60 005:028 JLINK_IsHalted()  returns TRUE (0000ms, 1238ms total)
T5A60 005:028 JLINK_ReadReg(R15 (PC))  returns 0x000001A4 (0000ms, 1238ms total)
T5A60 005:028 JLINK_ReadReg(XPSR)  returns 0x21000000 (0000ms, 1238ms total)
T5A60 005:028 JLINK_ClrBPEx(BPHandle = 0x00000001)  returns 0x00 (0000ms, 1238ms total)
T5A60 005:028 JLINK_ClrBPEx(BPHandle = 0x00000002)  returns 0x00 (0000ms, 1238ms total)
T5A60 005:028 JLINK_ClrBPEx(BPHandle = 0x00000003)  returns 0x00 (0000ms, 1238ms total)
T5A60 005:030 JLINK_ClrBPEx(BPHandle = 0x00000004)  returns 0x00 (0000ms, 1240ms total)
T5A60 005:030 JLINK_ReadMemU32(0xE000ED30, 0x0001 Items, ...) -- CPU_ReadMem(4 bytes @ 0xE000ED30) -- Data:  02 00 00 00  returns 0x01 (0000ms, 1240ms total)
T5A60 005:030 JLINK_ReadMemU32(0xE0001028, 0x0001 Items, ...) -- CPU_ReadMem(4 bytes @ 0xE0001028) -- Data:  00 00 00 00  returns 0x01 (0000ms, 1240ms total)
T5A60 005:030 JLINK_ReadMemU32(0xE0001038, 0x0001 Items, ...) -- CPU_ReadMem(4 bytes @ 0xE0001038) -- Data:  00 02 00 00  returns 0x01 (0000ms, 1240ms total)
T5A60 005:030 JLINK_ReadMemU32(0xE0001048, 0x0001 Items, ...) -- CPU_ReadMem(4 bytes @ 0xE0001048) -- Data:  00 00 00 00  returns 0x01 (0000ms, 1240ms total)
T5A60 005:030 JLINK_ReadMemU32(0xE0001058, 0x0001 Items, ...) -- CPU_ReadMem(4 bytes @ 0xE0001058) -- Data:  00 00 00 01  returns 0x01 (0002ms, 1242ms total)
T5A60 005:032 JLINK_ReadReg(R0)  returns 0x10000908 (0000ms, 1242ms total)
T5A60 005:032 JLINK_ReadReg(R1)  returns 0x10000908 (0000ms, 1242ms total)
T5A60 005:032 JLINK_ReadReg(R2)  returns 0x10000908 (0000ms, 1242ms total)
T5A60 005:032 JLINK_ReadReg(R3)  returns 0x10000908 (0000ms, 1242ms total)
T5A60 005:032 JLINK_ReadReg(R4)  returns 0x00000000 (0000ms, 1242ms total)
T5A60 005:032 JLINK_ReadReg(R5)  returns 0x100008A8 (0000ms, 1242ms total)
T5A60 005:032 JLINK_ReadReg(R6)  returns 0x00000000 (0000ms, 1242ms total)
T5A60 005:032 JLINK_ReadReg(R7)  returns 0x00000000 (0000ms, 1242ms total)
T5A60 005:032 JLINK_ReadReg(R8)  returns 0x00000000 (0000ms, 1242ms total)
T5A60 005:032 JLINK_ReadReg(R9)  returns 0x100001DC (0000ms, 1242ms total)
T5A60 005:032 JLINK_ReadReg(R10)  returns 0x00000294 (0000ms, 1242ms total)
T5A60 005:032 JLINK_ReadReg(R11)  returns 0x00000000 (0000ms, 1242ms total)
T5A60 005:032 JLINK_ReadReg(R12)  returns 0x100008E8 (0000ms, 1242ms total)
T5A60 005:032 JLINK_ReadReg(R13 (SP))  returns 0x10000B08 (0000ms, 1242ms total)
T5A60 005:032 JLINK_ReadReg(R14)  returns 0x00000157 (0000ms, 1242ms total)
T5A60 005:032 JLINK_ReadReg(R15 (PC))  returns 0x000001A4 (0000ms, 1242ms total)
T5A60 005:032 JLINK_ReadReg(XPSR)  returns 0x21000000 (0000ms, 1242ms total)
T5A60 005:032 JLINK_ReadReg(MSP)  returns 0x10000B08 (0000ms, 1242ms total)
T5A60 005:032 JLINK_ReadReg(PSP)  returns 0x10000800 (0000ms, 1242ms total)
T5A60 005:032 JLINK_ReadReg(CFBP)  returns 0x00000000 (0000ms, 1242ms total)
T5A54 005:035 JLINK_ReadMemU32(0xE0001004, 0x0001 Items, ...) -- CPU_ReadMem(4 bytes @ 0xE0001004) -- Data:  78 28 00 00  returns 0x01 (0000ms, 1242ms total)
T5A54 005:036 JLINK_ReadMem (0x40044000, 0x0030 Bytes, ...) -- CPU_ReadMem(48 bytes @ 0x40044000) -- Data:  AA AA AA AA AA AA AA AA AA AA AA AA AA AA AA AA ...  returns 0x01 (0001ms, 1244ms total)
T5A54 005:037 JLINK_ReadMem (0x40044030, 0x0004 Bytes, ...) -- CPU_ReadMem(4 bytes @ 0x40044030) -- Data:  AA AA AA AA  returns 0x01 (0000ms, 1244ms total)
T5A54 005:037 JLINK_ReadMem (0x40044034, 0x0004 Bytes, ...) -- CPU_ReadMem(4 bytes @ 0x40044034) -- Data:  AA AA AA AA  returns 0x01 (0001ms, 1245ms total)
T5A54 005:038 JLINK_ReadMem (0x40044038, 0x0004 Bytes, ...) -- CPU_ReadMem(4 bytes @ 0x40044038) -- Data:  AA AA AA AA  returns 0x01 (0000ms, 1245ms total)
T5A54 005:038 JLINK_ReadMem (0x4004403C, 0x0004 Bytes, ...) -- CPU_ReadMem(4 bytes @ 0x4004403C) -- Data:  AA AA AA AA  returns 0x01 (0001ms, 1246ms total)
T5A54 005:039 JLINK_ReadMem (0x40044040, 0x0004 Bytes, ...) -- CPU_ReadMem(4 bytes @ 0x40044040) -- Data:  AA AA AA AA  returns 0x01 (0000ms, 1246ms total)
T5A54 005:039 JLINK_ReadMem (0x40044044, 0x0004 Bytes, ...) -- CPU_ReadMem(4 bytes @ 0x40044044) -- Data:  AA AA AA AA  returns 0x01 (0001ms, 1247ms total)
T5A54 005:040 JLINK_ReadMem (0x40044048, 0x0004 Bytes, ...) -- CPU_ReadMem(4 bytes @ 0x40044048) -- Data:  AA AA AA AA  returns 0x01 (0001ms, 1248ms total)
T5A54 005:041 JLINK_ReadMem (0x4004404C, 0x0004 Bytes, ...) -- CPU_ReadMem(4 bytes @ 0x4004404C) -- Data:  AA AA AA AA  returns 0x01 (0000ms, 1248ms total)
T5A54 005:041 JLINK_ReadMem (0x40044050, 0x0004 Bytes, ...) -- CPU_ReadMem(4 bytes @ 0x40044050) -- Data:  AA AA AA AA  returns 0x01 (0001ms, 1249ms total)
T5A54 005:042 JLINK_ReadMem (0x40044054, 0x0004 Bytes, ...) -- CPU_ReadMem(4 bytes @ 0x40044054) -- Data:  AA AA AA AA  returns 0x01 (0000ms, 1249ms total)
T5A54 005:042 JLINK_ReadMem (0x40044058, 0x0004 Bytes, ...) -- CPU_ReadMem(4 bytes @ 0x40044058) -- Data:  AA AA AA AA  returns 0x01 (0000ms, 1249ms total)
T5A54 005:042 JLINK_ReadMem (0x4004405C, 0x0004 Bytes, ...) -- CPU_ReadMem(4 bytes @ 0x4004405C) -- Data:  AA AA AA AA  returns 0x01 (0002ms, 1251ms total)
T5A54 005:044 JLINK_ReadMem (0x4002C000, 0x0010 Bytes, ...) -- CPU_ReadMem(16 bytes @ 0x4002C000) -- Data:  00 00 00 00 00 00 00 00 00 00 00 00 00 00 00 00  returns 0x00 (0001ms, 1252ms total)
T5A54 005:045 JLINK_ReadMem (0x4002C010, 0x0004 Bytes, ...) -- CPU_ReadMem(4 bytes @ 0x4002C010) -- Data:  00 00 00 00  returns 0x00 (0000ms, 1252ms total)
T5A54 005:045 JLINK_ReadMem (0x4002C01C, 0x0004 Bytes, ...) -- CPU_ReadMem(4 bytes @ 0x4002C01C) -- Data:  00 00 00 00  returns 0x00 (0000ms, 1252ms total)
T5A54 005:045 JLINK_ReadMem (0x4002C024, 0x0004 Bytes, ...) -- CPU_ReadMem(4 bytes @ 0x4002C024) -- Data:  00 00 00 00  returns 0x00 (0001ms, 1253ms total)
T5A54 005:046 JLINK_ReadMem (0x4002C028, 0x0004 Bytes, ...) -- CPU_ReadMem(4 bytes @ 0x4002C028) -- Data:  00 00 00 00  returns 0x00 (0000ms, 1253ms total)
T5A54 005:046 JLINK_ReadMem (0x4002C040, 0x0010 Bytes, ...) -- CPU_ReadMem(16 bytes @ 0x4002C040) -- Data:  00 00 00 00 00 00 00 00 00 00 00 00 00 00 00 00  returns 0x00 (0001ms, 1254ms total)
T5A54 005:047 JLINK_ReadMem (0x4002C050, 0x0004 Bytes, ...) -- CPU_ReadMem(4 bytes @ 0x4002C050) -- Data:  00 00 00 00  returns 0x00 (0000ms, 1254ms total)
T5A54 005:047 JLINK_ReadMem (0x4002C05C, 0x0004 Bytes, ...) -- CPU_ReadMem(4 bytes @ 0x4002C05C) -- Data:  00 00 00 00  returns 0x00 (0000ms, 1254ms total)
T5A54 005:047 JLINK_ReadMem (0x4002C064, 0x0018 Bytes, ...) -- CPU_ReadMem(24 bytes @ 0x4002C064) -- Data:  00 00 00 00 00 00 00 00 00 00 00 00 00 00 00 00 ...  returns 0x00 (0002ms, 1256ms total)
T5A54 005:049 JLINK_ReadMem (0x4002C07C, 0x0004 Bytes, ...) -- CPU_ReadMem(4 bytes @ 0x4002C07C) -- Data:  00 00 00 00  returns 0x00 (0000ms, 1256ms total)
T5A54 005:051 JLINK_ReadMem (0x000001A4, 0x003C Bytes, ...) -- CPU_ReadMem(128 bytes @ 0x00000180) -- Updating C cache (128 bytes @ 0x00000180) -- Read from C cache (60 bytes @ 0x000001A4) -- Data:  00 F0 C4 FA 00 BF 00 BF 13 48 00 68 20 F0 F0 00 ...  returns 0x00 (0001ms, 1257ms total)
T5A54 005:082 JLINK_ReadMem (0x000001F6, 0x0002 Bytes, ...) -- Read from C cache (2 bytes @ 0x000001F6) -- Data:  00 BF  returns 0x00 (0000ms, 1257ms total)
T5A54 005:082 JLINK_ReadMem (0x000001F8, 0x003C Bytes, ...) -- CPU_ReadMem(64 bytes @ 0x00000200) -- Updating C cache (64 bytes @ 0x00000200) -- Read from C cache (60 bytes @ 0x000001F8) -- Data:  FE E7 00 00 00 C0 02 40 70 47 70 47 70 47 75 46 ...  returns 0x00 (0002ms, 1259ms total)
T5A60 009:282 JLINK_SetBPEx(Addr = 0x0000053C, Type = 0xFFFFFFF2)  returns 0x00000005 (0000ms, 1259ms total)
T5A60 009:282 JLINK_SetBPEx(Addr = 0x00000502, Type = 0xFFFFFFF2)  returns 0x00000006 (0000ms, 1259ms total)
T5A60 009:282 JLINK_SetBPEx(Addr = 0x0000046A, Type = 0xFFFFFFF2)  returns 0x00000007 (0000ms, 1259ms total)
T5A60 009:282 JLINK_Go() -- CPU_WriteMem(4 bytes @ 0xE0002000) -- CPU_WriteMem(4 bytes @ 0xE0002000) -- CPU_WriteMem(4 bytes @ 0xE0002000) -- CPU_WriteMem(4 bytes @ 0xE0002008) -- CPU_WriteMem(4 bytes @ 0xE000200C) -- CPU_WriteMem(4 bytes @ 0xE0002010) -- CPU_WriteMem(4 bytes @ 0xE0002014) (0003ms, 1262ms total)
T5A60 009:386 JLINK_IsHalted()  returns FALSE (0000ms, 1262ms total)
T5A60 009:487 JLINK_IsHalted()  returns FALSE (0000ms, 1262ms total)
T5A60 009:588 JLINK_IsHalted()  returns FALSE (0000ms, 1262ms total)
T5A60 009:689 JLINK_IsHalted()  returns FALSE (0000ms, 1262ms total)
T5A60 009:791 JLINK_IsHalted()  returns FALSE (0000ms, 1262ms total)
T5A60 009:892 JLINK_ReadMemU32(0xE0001004, 0x0001 Items, ...) -- CPU is running -- CPU_ReadMem(4 bytes @ 0xE0001004) -- Data:  45 EB 57 04  returns 0x01 (0000ms, 1262ms total)
T5A54 009:895 JLINK_ReadMem (0x40044000, 0x0030 Bytes, ...) -- CPU is running -- CPU_ReadMem(48 bytes @ 0x40044000) -- Data:  AA AA AA AA AA AA AA AA AA AA AA AA AA AA AA AA ...  returns 0x01 (0000ms, 1262ms total)
T5A54 009:895 JLINK_ReadMem (0x40044030, 0x0004 Bytes, ...) -- CPU is running -- CPU_ReadMem(4 bytes @ 0x40044030) -- Data:  AA AA AA AA  returns 0x01 (0001ms, 1263ms total)
T5A54 009:896 JLINK_ReadMem (0x40044034, 0x0004 Bytes, ...) -- CPU is running -- CPU_ReadMem(4 bytes @ 0x40044034) -- Data:  AA AA AA AA  returns 0x01 (0000ms, 1263ms total)
T5A54 009:896 JLINK_ReadMem (0x40044038, 0x0004 Bytes, ...) -- CPU is running -- CPU_ReadMem(4 bytes @ 0x40044038) -- Data:  AA AA AA AA  returns 0x01 (0001ms, 1264ms total)
T5A54 009:897 JLINK_ReadMem (0x4004403C, 0x0004 Bytes, ...) -- CPU is running -- CPU_ReadMem(4 bytes @ 0x4004403C) -- Data:  AA AA AA AA  returns 0x01 (0001ms, 1265ms total)
T5A54 009:898 JLINK_ReadMem (0x40044040, 0x0004 Bytes, ...) -- CPU is running -- CPU_ReadMem(4 bytes @ 0x40044040) -- Data:  AA AA AA AA  returns 0x01 (0000ms, 1265ms total)
T5A54 009:898 JLINK_ReadMem (0x40044044, 0x0004 Bytes, ...) -- CPU is running -- CPU_ReadMem(4 bytes @ 0x40044044) -- Data:  AA AA AA AA  returns 0x01 (0001ms, 1266ms total)
T5A54 009:899 JLINK_ReadMem (0x40044048, 0x0004 Bytes, ...) -- CPU is running -- CPU_ReadMem(4 bytes @ 0x40044048) -- Data:  AA AA AA AA  returns 0x01 (0002ms, 1268ms total)
T5A54 009:901 JLINK_ReadMem (0x4004404C, 0x0004 Bytes, ...) -- CPU is running -- CPU_ReadMem(4 bytes @ 0x4004404C) -- Data:  AA AA AA AA  returns 0x01 (0000ms, 1268ms total)
T5A54 009:901 JLINK_ReadMem (0x40044050, 0x0004 Bytes, ...) -- CPU is running -- CPU_ReadMem(4 bytes @ 0x40044050) -- Data:  AA AA AA AA  returns 0x01 (0001ms, 1269ms total)
T5A54 009:902 JLINK_ReadMem (0x40044054, 0x0004 Bytes, ...) -- CPU is running -- CPU_ReadMem(4 bytes @ 0x40044054) -- Data:  AA AA AA AA  returns 0x01 (0000ms, 1269ms total)
T5A54 009:902 JLINK_ReadMem (0x40044058, 0x0004 Bytes, ...) -- CPU is running -- CPU_ReadMem(4 bytes @ 0x40044058) -- Data:  AA AA AA AA  returns 0x01 (0000ms, 1269ms total)
T5A54 009:902 JLINK_ReadMem (0x4004405C, 0x0004 Bytes, ...) -- CPU is running -- CPU_ReadMem(4 bytes @ 0x4004405C) -- Data:  AA AA AA AA  returns 0x01 (0001ms, 1270ms total)
T5A54 009:903 JLINK_ReadMem (0x4002C000, 0x0010 Bytes, ...) -- CPU is running -- CPU_ReadMem(16 bytes @ 0x4002C000) -- Data:  50 00 00 00 00 00 00 00 00 00 00 00 00 00 00 00  returns 0x00 (0002ms, 1272ms total)
T5A54 009:905 JLINK_ReadMem (0x4002C010, 0x0004 Bytes, ...) -- CPU is running -- CPU_ReadMem(4 bytes @ 0x4002C010) -- Data:  0A 00 00 00  returns 0x00 (0000ms, 1272ms total)
T5A54 009:905 JLINK_ReadMem (0x4002C01C, 0x0004 Bytes, ...) -- CPU is running -- CPU_ReadMem(4 bytes @ 0x4002C01C) -- Data:  00 00 00 00  returns 0x00 (0001ms, 1273ms total)
